v2	V(n002)	I(R2)
0.000000000000000e+000	0.000000e+000	-2.344037e-005
1.000000000000000e-002	1.000000e-002	1.441123e-005
2.000000000000000e-002	2.000000e-002	5.721402e-005
3.000000000000000e-002	3.000000e-002	1.046588e-004
4.000000000000000e-002	4.000000e-002	1.563176e-004
5.000000000000000e-002	5.000000e-002	2.117558e-004
6.000000000000001e-002	6.000000e-002	2.705501e-004
7.000000000000001e-002	7.000000e-002	3.323069e-004
8.000000000000000e-002	8.000000e-002	3.966713e-004
9.000000000000000e-002	9.000000e-002	4.633292e-004
9.999999999999999e-002	1.000000e-001	5.320060e-004
1.100000000000000e-001	1.100000e-001	6.024627e-004
1.200000000000000e-001	1.200000e-001	6.744927e-004
1.300000000000000e-001	1.300000e-001	7.479166e-004
1.400000000000000e-001	1.400000e-001	8.225791e-004
1.500000000000000e-001	1.500000e-001	8.983452e-004
1.600000000000000e-001	1.600000e-001	9.750973e-004
1.700000000000000e-001	1.700000e-001	1.052732e-003
1.800000000000000e-001	1.800000e-001	1.131160e-003
1.900000000000000e-001	1.900000e-001	1.210301e-003
2.000000000000000e-001	2.000000e-001	1.290084e-003
2.100000000000001e-001	2.100000e-001	1.370447e-003
2.200000000000001e-001	2.200000e-001	1.451333e-003
2.300000000000001e-001	2.300000e-001	1.532693e-003
2.400000000000001e-001	2.400000e-001	1.614481e-003
2.500000000000001e-001	2.500000e-001	1.696655e-003
2.600000000000001e-001	2.600000e-001	1.779180e-003
2.700000000000001e-001	2.700000e-001	1.862019e-003
2.800000000000001e-001	2.800000e-001	1.945143e-003
2.900000000000001e-001	2.900000e-001	2.028522e-003
3.000000000000001e-001	3.000000e-001	2.112128e-003
3.100000000000001e-001	3.100000e-001	2.195938e-003
3.200000000000001e-001	3.200000e-001	2.279928e-003
3.300000000000001e-001	3.300000e-001	2.364075e-003
3.400000000000001e-001	3.400000e-001	2.448358e-003
3.500000000000001e-001	3.500000e-001	2.532758e-003
3.600000000000002e-001	3.600000e-001	2.617256e-003
3.700000000000002e-001	3.700000e-001	2.701832e-003
3.800000000000002e-001	3.800000e-001	2.786469e-003
3.900000000000002e-001	3.900000e-001	2.871149e-003
4.000000000000002e-001	4.000000e-001	2.955856e-003
4.100000000000002e-001	4.100000e-001	3.040572e-003
4.200000000000002e-001	4.200000e-001	3.125280e-003
4.300000000000002e-001	4.300000e-001	3.209963e-003
4.400000000000002e-001	4.400000e-001	3.294604e-003
4.500000000000002e-001	4.500000e-001	3.379186e-003
4.600000000000002e-001	4.600000e-001	3.463692e-003
4.700000000000003e-001	4.700000e-001	3.548102e-003
4.800000000000003e-001	4.800000e-001	3.632398e-003
4.900000000000003e-001	4.900000e-001	3.716561e-003
5.000000000000002e-001	5.000000e-001	3.800569e-003
5.100000000000002e-001	5.100000e-001	3.884403e-003
5.200000000000002e-001	5.200000e-001	3.968038e-003
5.300000000000003e-001	5.300000e-001	4.051451e-003
5.400000000000003e-001	5.400000e-001	4.134616e-003
5.500000000000003e-001	5.500000e-001	4.217505e-003
5.600000000000003e-001	5.600000e-001	4.300088e-003
5.700000000000003e-001	5.700000e-001	4.382334e-003
5.800000000000003e-001	5.800000e-001	4.464205e-003
5.900000000000003e-001	5.900000e-001	4.545665e-003
6.000000000000003e-001	6.000000e-001	4.626669e-003
6.100000000000003e-001	6.100000e-001	4.707173e-003
6.200000000000003e-001	6.200000e-001	4.787123e-003
6.300000000000003e-001	6.300000e-001	4.866461e-003
6.400000000000004e-001	6.400000e-001	4.945124e-003
6.500000000000004e-001	6.500000e-001	5.023037e-003
6.600000000000004e-001	6.600000e-001	5.100119e-003
6.700000000000004e-001	6.700000e-001	5.176278e-003
6.800000000000004e-001	6.800000e-001	5.251408e-003
6.900000000000004e-001	6.900000e-001	5.325390e-003
7.000000000000004e-001	7.000000e-001	5.398085e-003
7.100000000000004e-001	7.100000e-001	5.469337e-003
7.200000000000004e-001	7.200000e-001	5.538967e-003
7.300000000000004e-001	7.300000e-001	5.606766e-003
7.400000000000004e-001	7.400000e-001	5.672501e-003
7.500000000000004e-001	7.500000e-001	5.735901e-003
7.600000000000005e-001	7.600000e-001	5.796662e-003
7.700000000000005e-001	7.700000e-001	5.854445e-003
7.800000000000005e-001	7.800000e-001	5.908881e-003
7.900000000000005e-001	7.900000e-001	5.959581e-003
8.000000000000005e-001	8.000000e-001	6.006155e-003
8.100000000000005e-001	8.100000e-001	6.048243e-003
8.200000000000005e-001	8.200000e-001	6.085562e-003
8.300000000000005e-001	8.300000e-001	6.117948e-003
8.400000000000005e-001	8.400000e-001	6.145411e-003
8.500000000000005e-001	8.500000e-001	6.168152e-003
8.600000000000005e-001	8.600000e-001	6.186557e-003
8.700000000000006e-001	8.700000e-001	6.201156e-003
8.800000000000006e-001	8.800000e-001	6.212553e-003
8.900000000000006e-001	8.900000e-001	6.221356e-003
9.000000000000006e-001	9.000000e-001	6.228128e-003
9.100000000000006e-001	9.100000e-001	6.233348e-003
9.200000000000006e-001	9.200000e-001	6.237408e-003
9.300000000000006e-001	9.300000e-001	6.240616e-003
9.400000000000006e-001	9.400000e-001	6.243201e-003
9.500000000000006e-001	9.500000e-001	6.245339e-003
9.600000000000006e-001	9.600000e-001	6.247154e-003
9.700000000000006e-001	9.700000e-001	6.248740e-003
9.800000000000007e-001	9.800000e-001	6.250160e-003
9.900000000000007e-001	9.900000e-001	6.251463e-003
1.000000000000001e+000	1.000000e+000	6.252683e-003
1.010000000000001e+000	1.010000e+000	6.253842e-003
1.020000000000001e+000	1.020000e+000	6.254960e-003
1.030000000000001e+000	1.030000e+000	6.256046e-003
1.040000000000001e+000	1.040000e+000	6.257112e-003
1.050000000000001e+000	1.050000e+000	6.258161e-003
1.060000000000001e+000	1.060000e+000	6.259200e-003
1.070000000000001e+000	1.070000e+000	6.260230e-003
1.080000000000001e+000	1.080000e+000	6.261255e-003
1.090000000000001e+000	1.090000e+000	6.262275e-003
1.100000000000001e+000	1.100000e+000	6.263293e-003
1.110000000000001e+000	1.110000e+000	6.264309e-003
1.120000000000001e+000	1.120000e+000	6.265323e-003
1.130000000000001e+000	1.130000e+000	6.266336e-003
1.140000000000001e+000	1.140000e+000	6.267348e-003
1.150000000000001e+000	1.150000e+000	6.268360e-003
1.160000000000001e+000	1.160000e+000	6.269371e-003
1.170000000000001e+000	1.170000e+000	6.270382e-003
1.180000000000001e+000	1.180000e+000	6.271392e-003
1.190000000000001e+000	1.190000e+000	6.272403e-003
1.200000000000001e+000	1.200000e+000	6.273413e-003
1.210000000000001e+000	1.210000e+000	6.274424e-003
1.220000000000001e+000	1.220000e+000	6.275434e-003
1.230000000000001e+000	1.230000e+000	6.276444e-003
1.240000000000001e+000	1.240000e+000	6.277454e-003
1.250000000000001e+000	1.250000e+000	6.278464e-003
1.260000000000001e+000	1.260000e+000	6.279474e-003
1.270000000000001e+000	1.270000e+000	6.280484e-003
1.280000000000001e+000	1.280000e+000	6.281495e-003
1.290000000000001e+000	1.290000e+000	6.282505e-003
1.300000000000001e+000	1.300000e+000	6.283515e-003
1.310000000000001e+000	1.310000e+000	6.284525e-003
1.320000000000001e+000	1.320000e+000	6.285535e-003
1.330000000000001e+000	1.330000e+000	6.286545e-003
1.340000000000001e+000	1.340000e+000	6.287555e-003
1.350000000000001e+000	1.350000e+000	6.288565e-003
1.360000000000001e+000	1.360000e+000	6.289575e-003
1.370000000000001e+000	1.370000e+000	6.290585e-003
1.380000000000001e+000	1.380000e+000	6.291595e-003
1.390000000000001e+000	1.390000e+000	6.292605e-003
1.400000000000001e+000	1.400000e+000	6.293615e-003
1.410000000000001e+000	1.410000e+000	6.294625e-003
1.420000000000001e+000	1.420000e+000	6.295635e-003
1.430000000000001e+000	1.430000e+000	6.296645e-003
1.440000000000001e+000	1.440000e+000	6.297655e-003
1.450000000000001e+000	1.450000e+000	6.298665e-003
1.460000000000001e+000	1.460000e+000	6.299675e-003
1.470000000000001e+000	1.470000e+000	6.300686e-003
1.480000000000001e+000	1.480000e+000	6.301696e-003
1.490000000000001e+000	1.490000e+000	6.302706e-003
1.500000000000001e+000	1.500000e+000	6.303716e-003
1.510000000000001e+000	1.510000e+000	6.304726e-003
1.520000000000001e+000	1.520000e+000	6.305736e-003
1.530000000000001e+000	1.530000e+000	6.306746e-003
1.540000000000001e+000	1.540000e+000	6.307756e-003
1.550000000000001e+000	1.550000e+000	6.308766e-003
1.560000000000001e+000	1.560000e+000	6.309776e-003
1.570000000000001e+000	1.570000e+000	6.310786e-003
1.580000000000001e+000	1.580000e+000	6.311796e-003
1.590000000000001e+000	1.590000e+000	6.312807e-003
1.600000000000001e+000	1.600000e+000	6.313817e-003
1.610000000000001e+000	1.610000e+000	6.314827e-003
1.620000000000001e+000	1.620000e+000	6.315837e-003
1.630000000000001e+000	1.630000e+000	6.316847e-003
1.640000000000001e+000	1.640000e+000	6.317857e-003
1.650000000000001e+000	1.650000e+000	6.318867e-003
1.660000000000001e+000	1.660000e+000	6.319877e-003
1.670000000000001e+000	1.670000e+000	6.320887e-003
1.680000000000001e+000	1.680000e+000	6.321897e-003
1.690000000000001e+000	1.690000e+000	6.322907e-003
1.700000000000001e+000	1.700000e+000	6.323917e-003
1.710000000000001e+000	1.710000e+000	6.324927e-003
1.720000000000001e+000	1.720000e+000	6.325937e-003
1.730000000000001e+000	1.730000e+000	6.326947e-003
1.740000000000001e+000	1.740000e+000	6.327957e-003
1.750000000000001e+000	1.750000e+000	6.328967e-003
1.760000000000001e+000	1.760000e+000	6.329977e-003
1.770000000000001e+000	1.770000e+000	6.330987e-003
1.780000000000001e+000	1.780000e+000	6.331997e-003
1.790000000000001e+000	1.790000e+000	6.333007e-003
1.800000000000001e+000	1.800000e+000	6.334017e-003
1.810000000000001e+000	1.810000e+000	6.335028e-003
1.820000000000001e+000	1.820000e+000	6.336038e-003
1.830000000000001e+000	1.830000e+000	6.337048e-003
1.840000000000001e+000	1.840000e+000	6.338058e-003
1.850000000000001e+000	1.850000e+000	6.339068e-003
1.860000000000001e+000	1.860000e+000	6.340078e-003
1.870000000000001e+000	1.870000e+000	6.341088e-003
1.880000000000001e+000	1.880000e+000	6.342098e-003
1.890000000000002e+000	1.890000e+000	6.343108e-003
1.900000000000002e+000	1.900000e+000	6.344118e-003
1.910000000000002e+000	1.910000e+000	6.345128e-003
1.920000000000002e+000	1.920000e+000	6.346138e-003
1.930000000000002e+000	1.930000e+000	6.347148e-003
1.940000000000002e+000	1.940000e+000	6.348158e-003
1.950000000000002e+000	1.950000e+000	6.349168e-003
1.960000000000002e+000	1.960000e+000	6.350178e-003
1.970000000000002e+000	1.970000e+000	6.351188e-003
1.980000000000002e+000	1.980000e+000	6.352198e-003
1.990000000000002e+000	1.990000e+000	6.353208e-003
2.000000000000001e+000	2.000000e+000	6.354218e-003
2.010000000000001e+000	2.010000e+000	6.355228e-003
2.020000000000001e+000	2.020000e+000	6.356238e-003
2.030000000000001e+000	2.030000e+000	6.357248e-003
2.040000000000001e+000	2.040000e+000	6.358258e-003
2.050000000000000e+000	2.050000e+000	6.359268e-003
2.060000000000000e+000	2.060000e+000	6.360278e-003
2.070000000000000e+000	2.070000e+000	6.361288e-003
2.080000000000000e+000	2.080000e+000	6.362299e-003
2.089999999999999e+000	2.090000e+000	6.363309e-003
2.099999999999999e+000	2.100000e+000	6.364319e-003
2.109999999999999e+000	2.110000e+000	6.365329e-003
2.119999999999999e+000	2.120000e+000	6.366339e-003
2.129999999999999e+000	2.130000e+000	6.367349e-003
2.139999999999998e+000	2.140000e+000	6.368359e-003
2.149999999999998e+000	2.150000e+000	6.369369e-003
2.159999999999998e+000	2.160000e+000	6.370379e-003
2.169999999999998e+000	2.170000e+000	6.371389e-003
2.179999999999998e+000	2.180000e+000	6.372399e-003
2.189999999999997e+000	2.190000e+000	6.373409e-003
2.199999999999997e+000	2.200000e+000	6.374419e-003
2.209999999999997e+000	2.210000e+000	6.375429e-003
2.219999999999997e+000	2.220000e+000	6.376439e-003
2.229999999999996e+000	2.230000e+000	6.377449e-003
2.239999999999996e+000	2.240000e+000	6.378459e-003
2.249999999999996e+000	2.250000e+000	6.379469e-003
2.259999999999996e+000	2.260000e+000	6.380479e-003
2.269999999999996e+000	2.270000e+000	6.381489e-003
2.279999999999995e+000	2.280000e+000	6.382499e-003
2.289999999999995e+000	2.290000e+000	6.383509e-003
2.299999999999995e+000	2.300000e+000	6.384519e-003
2.309999999999995e+000	2.310000e+000	6.385529e-003
2.319999999999995e+000	2.320000e+000	6.386539e-003
2.329999999999994e+000	2.330000e+000	6.387549e-003
2.339999999999994e+000	2.340000e+000	6.388559e-003
2.349999999999994e+000	2.350000e+000	6.389569e-003
2.359999999999994e+000	2.360000e+000	6.390580e-003
2.369999999999993e+000	2.370000e+000	6.391590e-003
2.379999999999993e+000	2.380000e+000	6.392600e-003
2.389999999999993e+000	2.390000e+000	6.393610e-003
2.399999999999993e+000	2.400000e+000	6.394620e-003
2.409999999999993e+000	2.410000e+000	6.395630e-003
2.419999999999992e+000	2.420000e+000	6.396640e-003
2.429999999999992e+000	2.430000e+000	6.397650e-003
2.439999999999992e+000	2.440000e+000	6.398660e-003
2.449999999999992e+000	2.450000e+000	6.399670e-003
2.459999999999992e+000	2.460000e+000	6.400680e-003
2.469999999999991e+000	2.470000e+000	6.401690e-003
2.479999999999991e+000	2.480000e+000	6.402700e-003
2.489999999999991e+000	2.490000e+000	6.403710e-003
2.499999999999991e+000	2.500000e+000	6.404720e-003
2.509999999999991e+000	2.510000e+000	6.405730e-003
2.519999999999990e+000	2.520000e+000	6.406740e-003
2.529999999999990e+000	2.530000e+000	6.407750e-003
2.539999999999990e+000	2.540000e+000	6.408760e-003
2.549999999999990e+000	2.550000e+000	6.409770e-003
2.559999999999989e+000	2.560000e+000	6.410780e-003
2.569999999999989e+000	2.570000e+000	6.411790e-003
2.579999999999989e+000	2.580000e+000	6.412800e-003
2.589999999999989e+000	2.590000e+000	6.413810e-003
2.599999999999989e+000	2.600000e+000	6.414820e-003
2.609999999999988e+000	2.610000e+000	6.415830e-003
2.619999999999988e+000	2.620000e+000	6.416840e-003
2.629999999999988e+000	2.630000e+000	6.417850e-003
2.639999999999988e+000	2.640000e+000	6.418860e-003
2.649999999999988e+000	2.650000e+000	6.419870e-003
2.659999999999987e+000	2.660000e+000	6.420880e-003
2.669999999999987e+000	2.670000e+000	6.421890e-003
2.679999999999987e+000	2.680000e+000	6.422900e-003
2.689999999999987e+000	2.690000e+000	6.423910e-003
2.699999999999986e+000	2.700000e+000	6.424920e-003
2.709999999999986e+000	2.710000e+000	6.425930e-003
2.719999999999986e+000	2.720000e+000	6.426940e-003
2.729999999999986e+000	2.730000e+000	6.427950e-003
2.739999999999986e+000	2.740000e+000	6.428960e-003
2.749999999999985e+000	2.750000e+000	6.429970e-003
2.759999999999985e+000	2.760000e+000	6.430980e-003
2.769999999999985e+000	2.770000e+000	6.431990e-003
2.779999999999985e+000	2.780000e+000	6.433000e-003
2.789999999999985e+000	2.790000e+000	6.434010e-003
2.799999999999984e+000	2.800000e+000	6.435020e-003
2.809999999999984e+000	2.810000e+000	6.436030e-003
2.819999999999984e+000	2.820000e+000	6.437040e-003
2.829999999999984e+000	2.830000e+000	6.438050e-003
2.839999999999983e+000	2.840000e+000	6.439060e-003
2.849999999999983e+000	2.850000e+000	6.440070e-003
2.859999999999983e+000	2.860000e+000	6.441080e-003
2.869999999999983e+000	2.870000e+000	6.442090e-003
2.879999999999983e+000	2.880000e+000	6.443101e-003
2.889999999999982e+000	2.890000e+000	6.444111e-003
2.899999999999982e+000	2.900000e+000	6.445121e-003
2.909999999999982e+000	2.910000e+000	6.446131e-003
2.919999999999982e+000	2.920000e+000	6.447141e-003
2.929999999999982e+000	2.930000e+000	6.448151e-003
2.939999999999981e+000	2.940000e+000	6.449161e-003
2.949999999999981e+000	2.950000e+000	6.450170e-003
2.959999999999981e+000	2.960000e+000	6.451180e-003
2.969999999999981e+000	2.970000e+000	6.452190e-003
2.979999999999980e+000	2.980000e+000	6.453200e-003
2.989999999999980e+000	2.990000e+000	6.454210e-003
2.999999999999980e+000	3.000000e+000	6.455220e-003
3.009999999999980e+000	3.010000e+000	6.456230e-003
3.019999999999980e+000	3.020000e+000	6.457240e-003
3.029999999999979e+000	3.030000e+000	6.458250e-003
3.039999999999979e+000	3.040000e+000	6.459260e-003
3.049999999999979e+000	3.050000e+000	6.460270e-003
3.059999999999979e+000	3.060000e+000	6.461280e-003
3.069999999999979e+000	3.070000e+000	6.462290e-003
3.079999999999978e+000	3.080000e+000	6.463300e-003
3.089999999999978e+000	3.090000e+000	6.464310e-003
3.099999999999978e+000	3.100000e+000	6.465320e-003
3.109999999999978e+000	3.110000e+000	6.466330e-003
3.119999999999978e+000	3.120000e+000	6.467341e-003
3.129999999999977e+000	3.130000e+000	6.468351e-003
3.139999999999977e+000	3.140000e+000	6.469361e-003
3.149999999999977e+000	3.150000e+000	6.470371e-003
3.159999999999977e+000	3.160000e+000	6.471381e-003
3.169999999999976e+000	3.170000e+000	6.472391e-003
3.179999999999976e+000	3.180000e+000	6.473400e-003
3.189999999999976e+000	3.190000e+000	6.474410e-003
3.199999999999976e+000	3.200000e+000	6.475420e-003
3.209999999999976e+000	3.210000e+000	6.476430e-003
3.219999999999975e+000	3.220000e+000	6.477440e-003
3.229999999999975e+000	3.230000e+000	6.478450e-003
3.239999999999975e+000	3.240000e+000	6.479460e-003
3.249999999999975e+000	3.250000e+000	6.480470e-003
3.259999999999975e+000	3.260000e+000	6.481480e-003
3.269999999999974e+000	3.270000e+000	6.482490e-003
3.279999999999974e+000	3.280000e+000	6.483500e-003
3.289999999999974e+000	3.290000e+000	6.484510e-003
3.299999999999974e+000	3.300000e+000	6.485520e-003
3.309999999999973e+000	3.310000e+000	6.486530e-003
3.319999999999973e+000	3.320000e+000	6.487540e-003
3.329999999999973e+000	3.330000e+000	6.488550e-003
3.339999999999973e+000	3.340000e+000	6.489560e-003
3.349999999999973e+000	3.350000e+000	6.490570e-003
3.359999999999972e+000	3.360000e+000	6.491580e-003
3.369999999999972e+000	3.370000e+000	6.492590e-003
3.379999999999972e+000	3.380000e+000	6.493600e-003
3.389999999999972e+000	3.390000e+000	6.494610e-003
3.399999999999972e+000	3.400000e+000	6.495620e-003
3.409999999999971e+000	3.410000e+000	6.496630e-003
3.419999999999971e+000	3.420000e+000	6.497640e-003
3.429999999999971e+000	3.430000e+000	6.498650e-003
3.439999999999971e+000	3.440000e+000	6.499660e-003
3.449999999999970e+000	3.450000e+000	6.500670e-003
3.459999999999970e+000	3.460000e+000	6.501680e-003
3.469999999999970e+000	3.470000e+000	6.502690e-003
3.479999999999970e+000	3.480000e+000	6.503700e-003
3.489999999999970e+000	3.490000e+000	6.504710e-003
3.499999999999969e+000	3.500000e+000	6.505720e-003
3.509999999999969e+000	3.510000e+000	6.506730e-003
3.519999999999969e+000	3.520000e+000	6.507740e-003
3.529999999999969e+000	3.530000e+000	6.508750e-003
3.539999999999969e+000	3.540000e+000	6.509760e-003
3.549999999999968e+000	3.550000e+000	6.510770e-003
3.559999999999968e+000	3.560000e+000	6.511780e-003
3.569999999999968e+000	3.570000e+000	6.512790e-003
3.579999999999968e+000	3.580000e+000	6.513800e-003
3.589999999999967e+000	3.590000e+000	6.514810e-003
3.599999999999967e+000	3.600000e+000	6.515820e-003
3.609999999999967e+000	3.610000e+000	6.516830e-003
3.619999999999967e+000	3.620000e+000	6.517840e-003
3.629999999999967e+000	3.630000e+000	6.518850e-003
3.639999999999966e+000	3.640000e+000	6.519860e-003
3.649999999999966e+000	3.650000e+000	6.520870e-003
3.659999999999966e+000	3.660000e+000	6.521880e-003
3.669999999999966e+000	3.670000e+000	6.522890e-003
3.679999999999966e+000	3.680000e+000	6.523900e-003
3.689999999999965e+000	3.690000e+000	6.524910e-003
3.699999999999965e+000	3.700000e+000	6.525920e-003
3.709999999999965e+000	3.710000e+000	6.526929e-003
3.719999999999965e+000	3.720000e+000	6.527939e-003
3.729999999999965e+000	3.730000e+000	6.528949e-003
3.739999999999964e+000	3.740000e+000	6.529959e-003
3.749999999999964e+000	3.750000e+000	6.530969e-003
3.759999999999964e+000	3.760000e+000	6.531979e-003
3.769999999999964e+000	3.770000e+000	6.532989e-003
3.779999999999963e+000	3.780000e+000	6.533999e-003
3.789999999999963e+000	3.790000e+000	6.535009e-003
3.799999999999963e+000	3.800000e+000	6.536019e-003
3.809999999999963e+000	3.810000e+000	6.537029e-003
3.819999999999963e+000	3.820000e+000	6.538039e-003
3.829999999999962e+000	3.830000e+000	6.539049e-003
