Freq.	V(n001)	V(n002)
1.00000000000000e+002	(2.15831844130933e+001dB,1.93108417406514e-002°)	(1.12234097345019e+002dB,9.85618528804874e+001°)
1.04712854805090e+002	(2.15832223705549e+001dB,1.84776731079047e-002°)	(1.11842577080492e+002dB,9.81817631022970e+001°)
1.09647819614319e+002	(2.15832571174743e+001dB,1.76774797729180e-002°)	(1.11450325153519e+002dB,9.78180978222852e+001°)
1.14815362149688e+002	(2.15832889151683e+001dB,1.69093377315883e-002°)	(1.11057403552480e+002dB,9.74702030670029e+001°)
1.20226443461741e+002	(2.15833180053871e+001dB,1.61722970011359e-002°)	(1.10663869203293e+002dB,9.71374436908992e+001°)
1.25892541179417e+002	(2.15833446114910e+001dB,1.54653905751683e-002°)	(1.10269774351351e+002dB,9.68192038105082e+001°)
1.31825673855641e+002	(2.15833689396087e+001dB,1.47876421531077e-002°)	(1.09875166919972e+002dB,9.65148870705903e+001°)
1.38038426460289e+002	(2.15833911797646e+001dB,1.41380727704377e-002°)	(1.09480090845855e+002dB,9.62239167656373e+001°)
1.44543977074593e+002	(2.15834115069687e+001dB,1.35157064478182e-002°)	(1.09084586392223e+002dB,9.59457358376860e+001°)
1.51356124843621e+002	(2.15834300822612e+001dB,1.29195749682832e-002°)	(1.08688690440498e+002dB,9.56798067691002e+001°)
1.58489319246111e+002	(2.15834470537101e+001dB,1.23487218827926e-002°)	(1.08292436761417e+002dB,9.54256113868686e+001°)
1.65958690743756e+002	(2.15834625573575e+001dB,1.18022058355846e-002°)	(1.07895856266593e+002dB,9.51826505930369e+001°)
1.73780082874938e+002	(2.15834767181136e+001dB,1.12791032922492e-002°)	(1.07498977241558e+002dB,9.49504440341378e+001°)
1.81970085860999e+002	(2.15834896505997e+001dB,1.07785107453196e-002°)	(1.07101825561322e+002dB,9.47285297208918e+001°)
1.90546071796325e+002	(2.15835014599376e+001dB,1.02995464645490e-002°)	(1.06704424889518e+002dB,9.45164636080261e+001°)
1.99526231496888e+002	(2.15835122424893e+001dB,9.84135185192986e-003°)	(1.06306796862144e+002dB,9.43138191427740e+001°)
2.08929613085404e+002	(2.15835220865470e+001dB,9.40309245496092e-003°)	(1.05908961256926e+002dB,9.41201867894766e+001°)
2.18776162394956e+002	(2.15835310729759e+001dB,8.98395868566061e-003°)	(1.05510936149275e+002dB,9.39351735366905e+001°)
2.29086765276778e+002	(2.15835392758106e+001dB,8.58316628735711e-003°)	(1.05112738055760e+002dB,9.37584023923035e+001°)
2.39883291901949e+002	(2.15835467628095e+001dB,8.19995658633528e-003°)	(1.04714382066010e+002dB,9.35895118713646e+001°)
2.51188643150958e+002	(2.15835535959672e+001dB,7.83359656095858e-003°)	(1.04315881963881e+002dB,9.34281554806324e+001°)
2.63026799189539e+002	(2.15835598319889e+001dB,7.48337875687937e-003°)	(1.03917250338684e+002dB,9.32740012032285e+001°)
2.75422870333817e+002	(2.15835655227283e+001dB,7.14862107337042e-003°)	(1.03518498687243e+002dB,9.31267309862446e+001°)
2.88403150312661e+002	(2.15835707155913e+001dB,6.82866644261912e-003°)	(1.03119637507474e+002dB,9.29860402336777e+001°)
3.01995172040202e+002	(2.15835754539086e+001dB,6.52288242099119e-003°)	(1.02720676384160e+002dB,9.28516373066576e+001°)
3.16227766016839e+002	(2.15835797772780e+001dB,6.23066070875792e-003°)	(1.02321624067524e+002dB,9.27232430325737e+001°)
3.31131121482592e+002	(2.15835837218796e+001dB,5.95141661256121e-003°)	(1.01922488545194e+002dB,9.26005902243967e+001°)
3.46736850452532e+002	(2.15835873207655e+001dB,5.68458846293304e-003°)	(1.01523277108074e+002dB,9.24834232112255e+001°)
3.63078054770102e+002	(2.15835906041255e+001dB,5.42963699746385e-003°)	(1.01123996410623e+002dB,9.23714973808564e+001°)
3.80189396320562e+002	(2.15835935995319e+001dB,5.18604471870233e-003°)	(1.00724652526008e+002dB,9.22645787349749e+001°)
3.98107170553498e+002	(2.15835963321624e+001dB,4.95331523454463e-003°)	(1.00325250996543e+002dB,9.21624434574004e+001°)
4.16869383470336e+002	(2.15835988250064e+001dB,4.73097258771272e-003°)	(9.99257968798024e+001dB,9.20648774956697e+001°)
4.36515832240167e+002	(2.15836010990523e+001dB,4.51856057991063e-003°)	(9.95262947907877e+001dB,9.19716761561215e+001°)
4.57088189614876e+002	(2.15836031734605e+001dB,4.31564209536673e-003°)	(9.91267489404560e+001dB,9.18826437125418e+001°)
4.78630092322640e+002	(2.15836050657207e+001dB,4.12179842770466e-003°)	(9.87271631709318e+001dB,9.17975930283418e+001°)
5.01187233627274e+002	(2.15836067917966e+001dB,3.93662861342100e-003°)	(9.83275409876767e+001dB,9.17163451921669e+001°)
5.24807460249774e+002	(2.15836083662578e+001dB,3.75974877467257e-003°)	(9.79278855888758e+001dB,9.16387291667767e+001°)
5.49540873857626e+002	(2.15836098024009e+001dB,3.59079147357884e-003°)	(9.75281998922779e+001dB,9.15645814509842e+001°)
5.75439937337159e+002	(2.15836111123597e+001dB,3.42940507981656e-003°)	(9.71284865597072e+001dB,9.14937457544037e+001°)
6.02559586074360e+002	(2.15836123072069e+001dB,3.27525315291432e-003°)	(9.67287480194455e+001dB,9.14260726847242e+001°)
6.30957344480195e+002	(2.15836133970456e+001dB,3.12801384033898e-003°)	(9.63289864866679e+001dB,9.13614194472005e+001°)
6.60693448007598e+002	(2.15836143910944e+001dB,2.98737929219480e-003°)	(9.59292039820990e+001dB,9.12996495560325e+001°)
6.91830970918939e+002	(2.15836152977644e+001dB,2.85305509312514e-003°)	(9.55294023490438e+001dB,9.12406325572929e+001°)
7.24435960074993e+002	(2.15836161247293e+001dB,2.72475971181073e-003°)	(9.51295832689331e+001dB,9.11842437630489e+001°)
7.58577575029186e+002	(2.15836168789901e+001dB,2.60222396829201e-003°)	(9.47297482755113e+001dB,9.11303639963213e+001°)
7.94328234724284e+002	(2.15836175669341e+001dB,2.48519051920335e-003°)	(9.43298987677858e+001dB,9.10788793465172e+001°)
8.31763771102674e+002	(2.15836181943879e+001dB,2.37341336088954e-003°)	(9.39300360218442e+001dB,9.10296809349756e+001°)
8.70963589956084e+002	(2.15836187666670e+001dB,2.26665735027720e-003°)	(9.35301612016375e+001dB,9.09826646902632e+001°)
9.12010839355913e+002	(2.15836192886206e+001dB,2.16469774329315e-003°)	(9.31302753688203e+001dB,9.09377311328631e+001°)
9.54992586021440e+002	(2.15836197646717e+001dB,2.06731975055544e-003°)	(9.27303794917292e+001dB,9.08947851689030e+001°)
1.00000000000000e+003	(2.15836201988554e+001dB,1.97431811000925e-003°)	(9.23304744535745e+001dB,9.08537358925761e+001°)
1.04712854805090e+003	(2.15836205948521e+001dB,1.88549667613712e-003°)	(9.19305610599145e+001dB,9.08144963969128e+001°)
1.09647819614319e+003	(2.15836209560191e+001dB,1.80066802533925e-003°)	(9.15306400454742e+001dB,9.07769835925716e+001°)
1.14815362149689e+003	(2.15836212854188e+001dB,1.71965307705424e-003°)	(9.11307120803663e+001dB,9.07411180343242e+001°)
1.20226443461742e+003	(2.15836215858444e+001dB,1.64228073017160e-003°)	(9.07307777757657e+001dB,9.07068237549180e+001°)
1.25892541179417e+003	(2.15836218598437e+001dB,1.56838751427415e-003°)	(9.03308376890874e+001dB,9.06740281060096e+001°)
1.31825673855641e+003	(2.15836221097406e+001dB,1.49781725524040e-003°)	(8.99308923287080e+001dB,9.06426616058722e+001°)
1.38038426460289e+003	(2.15836223376548e+001dB,1.43042075473252e-003°)	(8.95309421582746e+001dB,9.06126577935856e+001°)
1.44543977074593e+003	(2.15836225455195e+001dB,1.36605548309495e-003°)	(8.91309876006332e+001dB,9.05839530894325e+001°)
1.51356124843622e+003	(2.15836227350982e+001dB,1.30458528519062e-003°)	(8.87310290414137e+001dB,9.05564866612292e+001°)
1.58489319246112e+003	(2.15836229079992e+001dB,1.24588009870660e-003°)	(8.83310668322985e+001dB,9.05302002963310e+001°)
1.65958690743757e+003	(2.15836230656894e+001dB,1.18981568446678e-003°)	(8.79311012940043e+001dB,9.05050382790593e+001°)
1.73780082874938e+003	(2.15836232095067e+001dB,1.13627336829804e-003°)	(8.75311327190018e+001dB,9.04809472733089e+001°)
1.81970085860999e+003	(2.15836233406715e+001dB,1.08513979400497e-003°)	(8.71311613739958e+001dB,9.04578762101013e+001°)
1.90546071796326e+003	(2.15836234602967e+001dB,1.03630668701887e-003°)	(8.67311875021870e+001dB,9.04357761798582e+001°)
1.99526231496889e+003	(2.15836235693974e+001dB,9.89670628297828e-004°)	(8.63312113253347e+001dB,9.04146003291781e+001°)
2.08929613085405e+003	(2.15836236688995e+001dB,9.45132838066285e-004°)	(8.59312330456381e+001dB,9.03943037619074e+001°)
2.18776162394956e+003	(2.15836237596473e+001dB,9.02598968994623e-004°)	(8.55312528474514e+001dB,9.03748434443048e+001°)
2.29086765276779e+003	(2.15836238424111e+001dB,8.61978908431740e-004°)	(8.51312708988477e+001dB,9.03561781141045e+001°)
2.39883291901950e+003	(2.15836239178931e+001dB,8.23186589316074e-004°)	(8.47312873530451e+001dB,9.03382681932935e+001°)
2.51188643150959e+003	(2.15836239867341e+001dB,7.86139809403195e-004°)	(8.43313023497064e+001dB,9.03210757044220e+001°)
2.63026799189540e+003	(2.15836240495182e+001dB,7.50760058460643e-004°)	(8.39313160161243e+001dB,9.03045641902756e+001°)
2.75422870333818e+003	(2.15836241067783e+001dB,7.16972353093187e-004°)	(8.35313284683015e+001dB,9.02886986367426e+001°)
2.88403150312662e+003	(2.15836241590004e+001dB,6.84705078874084e-004°)	(8.31313398119349e+001dB,9.02734453987168e+001°)
3.01995172040203e+003	(2.15836242066278e+001dB,6.53889839469992e-004°)	(8.27313501433126e+001dB,9.02587721288822e+001°)
3.16227766016840e+003	(2.15836242500647e+001dB,6.24461312459192e-004°)	(8.23313595501313e+001dB,9.02446477092305e+001°)
3.31131121482593e+003	(2.15836242896798e+001dB,5.96357111554397e-004°)	(8.19313681122400e+001dB,9.02310421851699e+001°)
3.46736850452534e+003	(2.15836243258093e+001dB,5.69517654952811e-004°)	(8.15313759023178e+001dB,9.02179267020867e+001°)
3.63078054770104e+003	(2.15836243587600e+001dB,5.43886039547188e-004°)	(8.11313829864911e+001dB,9.02052734442273e+001°)
3.80189396320564e+003	(2.15836243888114e+001dB,5.19407920742373e-004°)	(8.07313894248944e+001dB,9.01930555757725e+001°)
3.98107170553500e+003	(2.15836244162187e+001dB,4.96031397632271e-004°)	(8.03313952721806e+001dB,9.01812471839812e+001°)
4.16869383470338e+003	(2.15836244412145e+001dB,4.73706903302250e-004°)	(7.99314005779854e+001dB,9.01698232242827e+001°)
4.36515832240169e+003	(2.15836244640110e+001dB,4.52387100031797e-004°)	(7.95314053873481e+001dB,9.01587594672044e+001°)
4.57088189614878e+003	(2.15836244848018e+001dB,4.32026779181620e-004°)	(7.91314097410938e+001dB,9.01480324470210e+001°)
4.78630092322642e+003	(2.15836245037632e+001dB,4.12582765558534e-004°)	(7.87314136761803e+001dB,9.01376194120183e+001°)
5.01187233627276e+003	(2.15836245210562e+001dB,3.94013826060213e-004°)	(7.83314172260117e+001dB,9.01274982762675e+001°)
5.24807460249776e+003	(2.15836245368277e+001dB,3.76280582410327e-004°)	(7.79314204207217e+001dB,9.01176475728064e+001°)
5.49540873857628e+003	(2.15836245512114e+001dB,3.59345427802712e-004°)	(7.75314232874295e+001dB,9.01080464081308e+001°)
5.75439937337161e+003	(2.15836245643296e+001dB,3.43172447281040e-004°)	(7.71314258504701e+001dB,9.00986744178984e+001°)
6.02559586074362e+003	(2.15836245762935e+001dB,3.27727341687929e-004°)	(7.67314281316007e+001dB,9.00895117237529e+001°)
6.30957344480198e+003	(2.15836245872048e+001dB,3.12977355024668e-004°)	(7.63314301501856e+001dB,9.00805388911763e+001°)
6.60693448007601e+003	(2.15836245971559e+001dB,2.98891205069626e-004°)	(7.59314319233600e+001dB,9.00717368882808e+001°)
6.91830970918941e+003	(2.15836246062315e+001dB,2.85439017110064e-004°)	(7.55314334661764e+001dB,9.00630870454528e+001°)
7.24435960074995e+003	(2.15836246145086e+001dB,2.72592260648414e-004°)	(7.51314347917314e+001dB,9.00545710157637e+001°)
7.58577575029189e+003	(2.15836246220574e+001dB,2.60323688950200e-004°)	(7.47314359112777e+001dB,9.00461707360644e+001°)
7.94328234724287e+003	(2.15836246289419e+001dB,2.48607281306615e-004°)	(7.43314368343189e+001dB,9.00378683886801e+001°)
8.31763771102677e+003	(2.15836246352207e+001dB,2.37418187890365e-004°)	(7.39314375686905e+001dB,9.00296463636253e+001°)
8.70963589956087e+003	(2.15836246409470e+001dB,2.26732677088756e-004°)	(7.35314381206267e+001dB,9.00214872212583e+001°)
9.12010839355917e+003	(2.15836246461695e+001dB,2.16528085203124e-004°)	(7.31314384948127e+001dB,9.00133736552967e+001°)
9.54992586021443e+003	(2.15836246509325e+001dB,2.06782768408637e-004°)	(7.27314386944250e+001dB,9.00052884561149e+001°)
1.00000000000001e+004	(2.15836246552764e+001dB,1.97476056873187e-004°)	(7.23314387211581e+001dB,8.99972144742469e+001°)
1.04712854805091e+004	(2.15836246592380e+001dB,1.88588210938589e-004°)	(7.19314385752389e+001dB,8.99891345840162e+001°)
1.09647819614319e+004	(2.15836246628511e+001dB,1.80100379271622e-004°)	(7.15314382554287e+001dB,8.99810316472158e+001°)
1.14815362149689e+004	(2.15836246661463e+001dB,1.71994558896552e-004°)	(7.11314377590127e+001dB,8.99728884767624e+001°)
1.20226443461742e+004	(2.15836246691515e+001dB,1.64253557024718e-004°)	(7.07314370817769e+001dB,8.99646878002460e+001°)
1.25892541179418e+004	(2.15836246718923e+001dB,1.56860954600524e-004°)	(7.03314362179722e+001dB,8.99564122233002e+001°)
1.31825673855642e+004	(2.15836246743920e+001dB,1.49801071486802e-004°)	(6.99314351602659e+001dB,8.99480441927127e+001°)
1.38038426460290e+004	(2.15836246766717e+001dB,1.43058933215907e-004°)	(6.95314338996792e+001dB,8.99395659592009e+001°)
1.44543977074594e+004	(2.15836246787508e+001dB,1.36620239236254e-004°)	(6.91314324255112e+001dB,8.99309595397708e+001°)
1.51356124843622e+004	(2.15836246806470e+001dB,1.30471332587104e-004°)	(6.87314307252477e+001dB,8.99222066795822e+001°)
1.58489319246113e+004	(2.15836246823763e+001dB,1.24599170937440e-004°)	(6.83314287844556e+001dB,8.99132888132380e+001°)
1.65958690743758e+004	(2.15836246839535e+001dB,1.18991298927637e-004°)	(6.79314265866597e+001dB,8.99041870254152e+001°)
1.73780082874939e+004	(2.15836246853919e+001dB,1.13635821755370e-004°)	(6.75314241132031e+001dB,8.98948820107566e+001°)
1.81970085861000e+004	(2.15836246867037e+001dB,1.08521379949855e-004°)	(6.71314213430892e+001dB,8.98853540329351e+001°)
1.90546071796326e+004	(2.15836246879001e+001dB,1.03637125280981e-004°)	(6.67314182528030e+001dB,8.98755828828074e+001°)
1.99526231496890e+004	(2.15836246889913e+001dB,9.89726977523274e-005°)	(6.63314148161115e+001dB,8.98655478355658e+001°)
2.08929613085406e+004	(2.15836246899864e+001dB,9.45182036293338e-005°)	(6.59314110038415e+001dB,8.98552276067997e+001°)
2.18776162394957e+004	(2.15836246908940e+001dB,9.02641944560671e-005°)	(6.55314067836315e+001dB,8.98446003073726e+001°)
2.29086765276779e+004	(2.15836246917217e+001dB,8.62016470161383e-005°)	(6.51314021196573e+001dB,8.98336433970202e+001°)
2.39883291901951e+004	(2.15836246924766e+001dB,8.23219441953036e-005°)	(6.47313969723276e+001dB,8.98223336365713e+001°)
2.51188643150960e+004	(2.15836246931650e+001dB,7.86168567051989e-005°)	(6.43313912979484e+001dB,8.98106470386905e+001°)
2.63026799189541e+004	(2.15836246937929e+001dB,7.50785256294729e-005°)	(6.39313850483520e+001dB,8.97985588170399e+001°)
2.75422870333819e+004	(2.15836246943656e+001dB,7.16994457553289e-005°)	(6.35313781704878e+001dB,8.97860433337518e+001°)
2.88403150312663e+004	(2.15836246948878e+001dB,6.84724496551436e-005°)	(6.31313706059725e+001dB,8.97730740451019e+001°)
3.01995172040205e+004	(2.15836246953641e+001dB,6.53906924844212e-005°)	(6.27313622905945e+001dB,8.97596234452698e+001°)
3.16227766016841e+004	(2.15836246957985e+001dB,6.24476374638571e-005°)	(6.23313531537688e+001dB,8.97456630080675e+001°)
3.31131121482594e+004	(2.15836246961947e+001dB,5.96370420147328e-005°)	(6.19313431179379e+001dB,8.97311631265148e+001°)
3.46736850452535e+004	(2.15836246965560e+001dB,5.69529445182497e-005°)	(6.15313320979139e+001dB,8.97160930501337e+001°)
3.63078054770105e+004	(2.15836246968855e+001dB,5.43896516707281e-005°)	(6.11313200001554e+001dB,8.97004208198316e+001°)
3.80189396320565e+004	(2.15836246971861e+001dB,5.19417264078628e-005°)	(6.07313067219733e+001dB,8.96841132002379e+001°)
3.98107170553501e+004	(2.15836246974602e+001dB,4.96039763724297e-005°)	(6.03312921506602e+001dB,8.96671356093505e+001°)
4.16869383470340e+004	(2.15836246977101e+001dB,4.73714429009907e-005°)	(5.99312761625334e+001dB,8.96494520453486e+001°)
4.36515832240170e+004	(2.15836246979381e+001dB,4.52393905062448e-005°)	(5.95312586218855e+001dB,8.96310250104172e+001°)
4.57088189614880e+004	(2.15836246981461e+001dB,4.32032968327211e-005°)	(5.91312393798331e+001dB,8.96118154314272e+001°)
4.78630092322643e+004	(2.15836246983357e+001dB,4.12588430645145e-005°)	(5.87312182730535e+001dB,8.95917825773065e+001°)
5.01187233627278e+004	(2.15836246985086e+001dB,3.94019047647232e-005°)	(5.83311951223990e+001dB,8.95708839729302e+001°)
5.24807460249778e+004	(2.15836246986664e+001dB,3.76285431271606e-005°)	(5.79311697313774e+001dB,8.95490753093554e+001°)
5.49540873857631e+004	(2.15836246988102e+001dB,3.59349966217898e-005°)	(5.75311418844846e+001dB,8.95263103502142e+001°)
5.75439937337163e+004	(2.15836246989414e+001dB,3.43176730161625e-005°)	(5.71311113453770e+001dB,8.95025408340746e+001°)
6.02559586074364e+004	(2.15836246990611e+001dB,3.27731417559406e-005°)	(5.67310778548668e+001dB,8.94777163725699e+001°)
6.30957344480200e+004	(2.15836246991703e+001dB,3.12981266883438e-005°)	(5.63310411287235e+001dB,8.94517843440913e+001°)
6.60693448007603e+004	(2.15836246992698e+001dB,2.98894991130867e-005°)	(5.59310008552640e+001dB,8.94246897828278e+001°)
6.91830970918944e+004	(2.15836246993606e+001dB,2.85442711460719e-005°)	(5.55309566927092e+001dB,8.93963752629306e+001°)
7.24435960074998e+004	(2.15836246994434e+001dB,2.72595893817595e-005°)	(5.51309082662862e+001dB,8.93667807775721e+001°)
7.58577575029192e+004	(2.15836246995189e+001dB,2.60327288407765e-005°)	(5.47308551650513e+001dB,8.93358436126578e+001°)
7.94328234724290e+004	(2.15836246995878e+001dB,2.48610871899243e-005°)	(5.43307969384067e+001dB,8.93034982149435e+001°)
8.31763771102680e+004	(2.15836246996507e+001dB,2.37421792223297e-005°)	(5.39307330922809e+001dB,8.92696760542994e+001°)
8.70963589956090e+004	(2.15836246997080e+001dB,2.26736315860283e-005°)	(5.35306630849424e+001dB,8.92343054798529e+001°)
9.12010839355920e+004	(2.15836246997603e+001dB,2.16531777498029e-005°)	(5.31305863224096e+001dB,8.91973115697364e+001°)
9.54992586021447e+004	(2.15836246998079e+001dB,2.06786531955966e-005°)	(5.27305021534194e+001dB,8.91586159741509e+001°)
1.00000000000001e+005	(2.15836246998515e+001dB,1.97479908273059e-005°)	(5.23304098639107e+001dB,8.91181367514534e+001°)
1.04712854805091e+005	(2.15836246998912e+001dB,1.88592165862139e-005°)	(5.19303086709789e+001dB,8.90757881969616e+001°)
1.09647819614320e+005	(2.15836246999274e+001dB,1.80104452637655e-005°)	(5.15301977162479e+001dB,8.90314806641638e+001°)
1.14815362149690e+005	(2.15836246999604e+001dB,1.71998765028023e-005°)	(5.11300760586056e+001dB,8.89851203780120e+001°)
1.20226443461743e+005	(2.15836246999906e+001dB,1.64257909787745e-005°)	(5.07299426662415e+001dB,8.89366092399666e+001°)
1.25892541179418e+005	(2.15836247000181e+001dB,1.56865467528329e-005°)	(5.03297964079199e+001dB,8.88858446244560e+001°)
1.31825673855642e+005	(2.15836247000432e+001dB,1.49805757890624e-005°)	(4.99296360434151e+001dB,8.88327191664045e+001°)
1.38038426460290e+005	(2.15836247000661e+001dB,1.43063806284712e-005°)	(4.95294602130300e+001dB,8.87771205394780e+001°)
1.44543977074594e+005	(2.15836247000871e+001dB,1.36625312126817e-005°)	(4.91292674261091e+001dB,8.87189312246896e+001°)
1.51356124843623e+005	(2.15836247001062e+001dB,1.30476618505830e-005°)	(4.87290560484515e+001dB,8.86580282690059e+001°)
1.58489319246113e+005	(2.15836247001237e+001dB,1.24604683215145e-005°)	(4.83288242885184e+001dB,8.85942830335912e+001°)
1.65958690743758e+005	(2.15836247001397e+001dB,1.18997051088326e-005°)	(4.79285701823223e+001dB,8.85275609313267e+001°)
1.73780082874940e+005	(2.15836247001543e+001dB,1.13641827579951e-005°)	(4.75282915768706e+001dB,8.84577211532458e+001°)
1.81970085861001e+005	(2.15836247001676e+001dB,1.08527653535570e-005°)	(4.71279861120288e+001dB,8.83846163835303e+001°)
1.90546071796327e+005	(2.15836247001798e+001dB,1.03643681097276e-005°)	(4.67276512006539e+001dB,8.83080925027219e+001°)
