Freq.	V(n001)	V(n003)
1.00000000000000e+000	(0.00000000000000e+000dB,0.00000000000000e+000°)	(-7.71585930867882e+001dB,8.99906237438966e+001°)
1.25892541179417e+000	(0.00000000000000e+000dB,0.00000000000000e+000°)	(-7.51585931401333e+001dB,8.99881959929656e+001°)
1.58489319246111e+000	(0.00000000000000e+000dB,0.00000000000000e+000°)	(-7.31585932246796e+001dB,8.99851396356666e+001°)
1.99526231496888e+000	(0.00000000000000e+000dB,0.00000000000000e+000°)	(-7.11585933586765e+001dB,8.99812919098781e+001°)
2.51188643150958e+000	(0.00000000000000e+000dB,0.00000000000000e+000°)	(-6.91585935710473e+001dB,8.99764479102705e+001°)
3.16227766016838e+000	(0.00000000000000e+000dB,0.00000000000000e+000°)	(-6.71585939076322e+001dB,8.99703496763992e+001°)
3.98107170553497e+000	(0.00000000000000e+000dB,0.00000000000000e+000°)	(-6.51585944410833e+001dB,8.99626724554691e+001°)
5.01187233627272e+000	(0.00000000000000e+000dB,0.00000000000000e+000°)	(-6.31585952865462e+001dB,8.99530074082600e+001°)
6.30957344480194e+000	(0.00000000000000e+000dB,0.00000000000000e+000°)	(-6.11585966265143e+001dB,8.99408398373396e+001°)
7.94328234724282e+000	(0.00000000000000e+000dB,0.00000000000000e+000°)	(-5.91585987502198e+001dB,8.99255217783304e+001°)
1.00000000000000e+001	(0.00000000000000e+000dB,0.00000000000000e+000°)	(-5.71586021160641e+001dB,8.99062374950043e+001°)
1.25892541179417e+001	(0.00000000000000e+000dB,0.00000000000000e+000°)	(-5.51586074505626e+001dB,8.98819600414671e+001°)
1.58489319246111e+001	(0.00000000000000e+000dB,0.00000000000000e+000°)	(-5.31586159051602e+001dB,8.98513965797577e+001°)
1.99526231496888e+001	(0.00000000000000e+000dB,0.00000000000000e+000°)	(-5.11586293047619e+001dB,8.98129195439066e+001°)
2.51188643150958e+001	(0.00000000000000e+000dB,0.00000000000000e+000°)	(-4.91586505416179e+001dB,8.97644799908447e+001°)
3.16227766016838e+001	(0.00000000000000e+000dB,0.00000000000000e+000°)	(-4.71586841995618e+001dB,8.97034985360564e+001°)
3.98107170553498e+001	(0.00000000000000e+000dB,0.00000000000000e+000°)	(-4.51587375432938e+001dB,8.96267280903982e+001°)
5.01187233627273e+001	(0.00000000000000e+000dB,0.00000000000000e+000°)	(-4.31588220861202e+001dB,8.95300811371821e+001°)
6.30957344480194e+001	(0.00000000000000e+000dB,0.00000000000000e+000°)	(-4.11589560742269e+001dB,8.94084124488811e+001°)
7.94328234724283e+001	(0.00000000000000e+000dB,0.00000000000000e+000°)	(-3.91591684229185e+001dB,8.92552458667758e+001°)
1.00000000000000e+002	(0.00000000000000e+000dB,0.00000000000000e+000°)	(-3.71595049524530e+001dB,8.90624309813623e+001°)
1.25892541179417e+002	(0.00000000000000e+000dB,0.00000000000000e+000°)	(-3.51600382644335e+001dB,8.88197122037148e+001°)
1.58489319246112e+002	(0.00000000000000e+000dB,0.00000000000000e+000°)	(-3.31608833779137e+001dB,8.85141888203169e+001°)
1.99526231496888e+002	(0.00000000000000e+000dB,0.00000000000000e+000°)	(-3.11622224684961e+001dB,8.81296403466122e+001°)
2.51188643150958e+002	(0.00000000000000e+000dB,0.00000000000000e+000°)	(-2.91643439706720e+001dB,8.76456873586860e+001°)
3.16227766016838e+002	(0.00000000000000e+000dB,0.00000000000000e+000°)	(-2.71677042840257e+001dB,8.70367552445278e+001°)
3.98107170553498e+002	(0.00000000000000e+000dB,0.00000000000000e+000°)	(-2.51730249033452e+001dB,8.62708097224080e+001°)
5.01187233627273e+002	(0.00000000000000e+000dB,0.00000000000000e+000°)	(-2.31814446927904e+001dB,8.53078441990177e+001°)
6.30957344480194e+002	(0.00000000000000e+000dB,0.00000000000000e+000°)	(-2.11947570784755e+001dB,8.40981313267614e+001°)
7.94328234724283e+002	(0.00000000000000e+000dB,0.00000000000000e+000°)	(-1.92157757201748e+001dB,8.25803258002857e+001°)
1.00000000000000e+003	(0.00000000000000e+000dB,0.00000000000000e+000°)	(-1.72488889323914e+001dB,8.06796606977907e+001°)
1.25892541179417e+003	(0.00000000000000e+000dB,0.00000000000000e+000°)	(-1.53008776699615e+001dB,7.83067775719597e+001°)
1.58489319246112e+003	(0.00000000000000e+000dB,0.00000000000000e+000°)	(-1.33820685598338e+001dB,7.53582533807719e+001°)
1.99526231496888e+003	(0.00000000000000e+000dB,0.00000000000000e+000°)	(-1.15078346415619e+001dB,7.17206889006709e+001°)
2.51188643150959e+003	(0.00000000000000e+000dB,0.00000000000000e+000°)	(-9.70027081351240e+000dB,6.72811526100199e+001°)
3.16227766016839e+003	(0.00000000000000e+000dB,0.00000000000000e+000°)	(-7.98946813758695e+000dB,6.19470650017345e+001°)
3.98107170553498e+003	(0.00000000000000e+000dB,0.00000000000000e+000°)	(-6.41319846275634e+000dB,5.56763601446359e+001°)
5.01187233627273e+003	(0.00000000000000e+000dB,0.00000000000000e+000°)	(-5.01339896281311e+000dB,4.85114408168149e+001°)
6.30957344480195e+003	(0.00000000000000e+000dB,0.00000000000000e+000°)	(-3.82863834619551e+000dB,4.05988339221558e+001°)
7.94328234724283e+003	(0.00000000000000e+000dB,0.00000000000000e+000°)	(-2.88458214187101e+000dB,3.21711022532535e+001°)
1.00000000000000e+004	(0.00000000000000e+000dB,0.00000000000000e+000°)	(-2.18774601030571e+000dB,2.34844003636155e+001°)
1.25892541179417e+004	(0.00000000000000e+000dB,0.00000000000000e+000°)	(-1.72737696374478e+000dB,1.47397099263098e+001°)
1.58489319246112e+004	(0.00000000000000e+000dB,0.00000000000000e+000°)	(-1.48497627042676e+000dB,6.03339718270004e+000°)
1.99526231496889e+004	(0.00000000000000e+000dB,0.00000000000000e+000°)	(-1.44593760429124e+000dB,-2.63776407381856e+000°)
2.51188643150959e+004	(0.00000000000000e+000dB,0.00000000000000e+000°)	(-1.60754348064351e+000dB,-1.13257678202981e+001°)
3.16227766016839e+004	(0.00000000000000e+000dB,0.00000000000000e+000°)	(-1.98036877963801e+000dB,-2.00607130786439e+001°)
3.98107170553498e+004	(0.00000000000000e+000dB,0.00000000000000e+000°)	(-2.58267591763033e+000dB,-2.87888233817171e+001°)
5.01187233627274e+004	(0.00000000000000e+000dB,0.00000000000000e+000°)	(-3.42965001909108e+000dB,-3.73470176339807e+001°)
6.30957344480195e+004	(0.00000000000000e+000dB,0.00000000000000e+000°)	(-4.52226248257685e+000dB,-4.54920183267488e+001°)
7.94328234724284e+004	(0.00000000000000e+000dB,0.00000000000000e+000°)	(-5.84198122566041e+000dB,-5.29727074495645e+001°)
1.00000000000000e+005	(0.00000000000000e+000dB,0.00000000000000e+000°)	(-7.35419456344563e+000dB,-5.96040820208876e+001°)
1.25892541179417e+005	(0.00000000000000e+000dB,0.00000000000000e+000°)	(-9.01719011294101e+000dB,-6.53037118826990e+001°)
1.58489319246112e+005	(0.00000000000000e+000dB,0.00000000000000e+000°)	(-1.07909226061812e+001dB,-7.00843818925168e+001°)
1.99526231496889e+005	(0.00000000000000e+000dB,0.00000000000000e+000°)	(-1.26421162361241e+001dB,-7.40229606952933e+001°)
2.51188643150959e+005	(0.00000000000000e+000dB,0.00000000000000e+000°)	(-1.45456437439915e+001dB,-7.72273808076035e+001°)
3.16227766016839e+005	(0.00000000000000e+000dB,0.00000000000000e+000°)	(-1.64836971348575e+001dB,-7.98125615322598e+001°)
3.98107170553499e+005	(0.00000000000000e+000dB,0.00000000000000e+000°)	(-1.84441699088414e+001dB,-8.18865976802049e+001°)
5.01187233627274e+005	(0.00000000000000e+000dB,0.00000000000000e+000°)	(-2.04190507462263e+001dB,-8.35445606628814e+001°)
6.30957344480196e+005	(0.00000000000000e+000dB,0.00000000000000e+000°)	(-2.24031294274123e+001dB,-8.48668521916344e+001°)
7.94328234724285e+005	(0.00000000000000e+000dB,0.00000000000000e+000°)	(-2.43930547895984e+001dB,-8.59198747580064e+001°)
1.00000000000000e+006	(0.00000000000000e+000dB,0.00000000000000e+000°)	(-2.63866865354920e+001dB,-8.67576745522983e+001°)
