Freq.	V(n002)/V(n001)	V(n003)/V(n001)
1.00000000000000e+000	(-7.71585930849030e+001dB,8.99918174887764e+001°)	(-7.71585930867882e+001dB,8.99906237438966e+001°)
1.25892541179417e+000	(-7.51585931371454e+001dB,8.99896988287299e+001°)	(-7.51585931401333e+001dB,8.99881959929656e+001°)
1.58489319246111e+000	(-7.31585932199442e+001dB,8.99870315937998e+001°)	(-7.31585932246796e+001dB,8.99851396356666e+001°)
1.99526231496888e+000	(-7.11585933511713e+001dB,8.99836737440495e+001°)	(-7.11585933586765e+001dB,8.99812919098781e+001°)
2.51188643150958e+000	(-6.91585935591523e+001dB,8.99794464618345e+001°)	(-6.91585935710473e+001dB,8.99764479102705e+001°)
3.16227766016838e+000	(-6.71585938887800e+001dB,8.99741246291597e+001°)	(-6.71585939076322e+001dB,8.99703496763992e+001°)
3.98107170553497e+000	(-6.51585944112046e+001dB,8.99674248394236e+001°)	(-6.51585944410833e+001dB,8.99626724554691e+001°)
5.01187233627272e+000	(-6.31585952391916e+001dB,8.99589903051788e+001°)	(-6.31585952865462e+001dB,8.99530074082600e+001°)
6.30957344480194e+000	(-6.11585965514623e+001dB,8.99483718582909e+001°)	(-6.11585966265143e+001dB,8.99408398373396e+001°)
7.94328234724282e+000	(-5.91585986312704e+001dB,8.99350040308762e+001°)	(-5.91585987502198e+001dB,8.99255217783304e+001°)
1.00000000000000e+001	(-5.71586019275420e+001dB,8.99181749436315e+001°)	(-5.71586021160641e+001dB,8.99062374950043e+001°)
1.25892541179417e+001	(-5.51586071517754e+001dB,8.98969883987688e+001°)	(-5.51586074505626e+001dB,8.98819600414671e+001°)
1.58489319246111e+001	(-5.31586154316143e+001dB,8.98703161604085e+001°)	(-5.31586159051602e+001dB,8.98513965797577e+001°)
1.99526231496888e+001	(-5.11586285542423e+001dB,8.98367378842621e+001°)	(-5.11586293047619e+001dB,8.98129195439066e+001°)
2.51188643150958e+001	(-4.91586493521245e+001dB,8.97944655037747e+001°)	(-4.91586505416179e+001dB,8.97644799908447e+001°)
3.16227766016838e+001	(-4.71586823143419e+001dB,8.97412480582538e+001°)	(-4.71586841995618e+001dB,8.97034985360564e+001°)
3.98107170553498e+001	(-4.51587345554221e+001dB,8.96742519191536e+001°)	(-4.51587375432938e+001dB,8.96267280903982e+001°)
5.01187233627273e+001	(-4.31588173506637e+001dB,8.95899100848431e+001°)	(-4.31588220861202e+001dB,8.95300811371821e+001°)
6.30957344480194e+001	(-4.11589485690365e+001dB,8.94837326154405e+001°)	(-4.11589560742269e+001dB,8.94084124488811e+001°)
7.94328234724283e+001	(-3.91591565279994e+001dB,8.93500683065300e+001°)	(-3.91591684229185e+001dB,8.92552458667758e+001°)
1.00000000000000e+002	(-3.71594861002917e+001dB,8.91818052966326e+001°)	(-3.71595049524530e+001dB,8.90624309813623e+001°)
1.25892541179417e+002	(-3.51600083858093e+001dB,8.89699954355374e+001°)	(-3.51600382644335e+001dB,8.88197122037148e+001°)
1.58489319246112e+002	(-3.31608360235809e+001dB,8.87033839460552e+001°)	(-3.31608833779137e+001dB,8.85141888203169e+001°)
1.99526231496888e+002	(-3.11621474171757e+001dB,8.83678223918575e+001°)	(-3.11622224684961e+001dB,8.81296403466122e+001°)
2.51188643150958e+002	(-2.91642250229463e+001dB,8.79455397778189e+001°)	(-2.91643439706720e+001dB,8.76456873586860e+001°)
3.16227766016838e+002	(-2.71675157660949e+001dB,8.74142450590608e+001°)	(-2.71677042840257e+001dB,8.70367552445278e+001°)
3.98107170553498e+002	(-2.51727261263527e+001dB,8.67460372208643e+001°)	(-2.51730249033452e+001dB,8.62708097224080e+001°)
5.01187233627273e+002	(-2.31809711726954e+001dB,8.59061121490718e+001°)	(-2.31814446927904e+001dB,8.53078441990177e+001°)
6.30957344480194e+002	(-2.11940066236285e+001dB,8.48512900428897e+001°)	(-2.11947570784755e+001dB,8.40981313267614e+001°)
7.94328234724283e+002	(-1.92145863894940e+001dB,8.35284645076256e+001°)	(-1.92157757201748e+001dB,8.25803258002857e+001°)
1.00000000000000e+003	(-1.72470041212239e+001dB,8.18732328926561e+001°)	(-1.72488889323914e+001dB,8.06796606977907e+001°)
1.25892541179417e+003	(-1.52978908245926e+001dB,7.98092688369093e+001°)	(-1.53008776699615e+001dB,7.83067775719597e+001°)
1.58489319246112e+003	(-1.33773356805798e+001dB,7.72495243132014e+001°)	(-1.33820685598338e+001dB,7.53582533807719e+001°)
1.99526231496888e+003	(-1.15003359222027e+001dB,7.41011524502922e+001°)	(-1.15078346415619e+001dB,7.17206889006709e+001°)
2.51188643150959e+003	(-9.68839213794066e+000dB,7.02769710790644e+001°)	(-9.70027081351240e+000dB,6.72811526100199e+001°)
3.16227766016839e+003	(-7.97065673488401e+000dB,6.57165697445662e+001°)	(-7.98946813758695e+000dB,6.19470650017345e+001°)
3.98107170553498e+003	(-6.38342204705949e+000dB,6.04178903451038e+001°)	(-6.41319846275634e+000dB,5.56763601446359e+001°)
5.01187233627273e+003	(-4.96630068272533e+000dB,5.44727334911110e+001°)	(-5.01339896281311e+000dB,4.85114408168150e+001°)
6.30957344480195e+003	(-3.75422750128900e+000dB,4.80879114760133e+001°)	(-3.82863834619551e+000dB,4.05988339221558e+001°)
7.94328234724283e+003	(-2.76723259924381e+000dB,4.15681801548670e+001°)	(-2.88458214187101e+000dB,3.21711022532535e+001°)
1.00000000000000e+004	(-2.00320105889816e+000dB,3.52534829160250e+001°)	(-2.18774601030571e+000dB,2.34844003636155e+001°)
1.25892541179417e+004	(-1.43841937385154e+000dB,2.94369884708778e+001°)	(-1.72737696374478e+000dB,1.47397099263098e+001°)
1.58489319246112e+004	(-1.03551209637742e+000dB,2.43070846308505e+001°)	(-1.48497627042676e+000dB,6.03339718270004e+000°)
1.99526231496889e+004	(-7.53647873985271e-001dB,1.99353064924741e+001°)	(-1.44593760429124e+000dB,-2.63776407381856e+000°)
2.51188643150959e+004	(-5.56220749960224e-001dB,1.62993625440052e+001°)	(-1.60754348064351e+000dB,-1.13257678202981e+001°)
3.16227766016839e+004	(-4.14610765846088e-001dB,1.33183183292056e+001°)	(-1.98036877963801e+000dB,-2.00607130786439e+001°)
3.98107170553498e+004	(-3.08994939746702e-001dB,1.08851003230463e+001°)	(-2.58267591763033e+000dB,-2.87888233817171e+001°)
5.01187233627274e+004	(-2.27398114590328e-001dB,8.89199005736128e+000°)	(-3.42965001909108e+000dB,-3.73470176339807e+001°)
6.30957344480195e+004	(-1.63603194424602e-001dB,7.24788001971198e+000°)	(-4.52226248257685e+000dB,-4.54920183267488e+001°)
7.94328234724284e+004	(-1.14530985887845e-001dB,5.88514639052354e+000°)	(-5.84198122566040e+000dB,-5.29727074495645e+001°)
1.00000000000000e+005	(-7.80663715877884e-002dB,4.75646267606620e+000°)	(-7.35419456344562e+000dB,-5.96040820208876e+001°)
1.25892541179417e+005	(-5.20210035282415e-002dB,3.82688507085503e+000°)	(-9.01719011294101e+000dB,-6.53037118826990e+001°)
1.58489319246112e+005	(-3.40672885558846e-002dB,3.06728423267408e+000°)	(-1.07909226061812e+001dB,-7.00843818925168e+001°)
1.99526231496889e+005	(-2.20325350374583e-002dB,2.45134086304041e+000°)	(-1.26421162361241e+001dB,-7.40229606952933e+001°)
2.51188643150959e+005	(-1.41273309182901e-002dB,1.95504077799173e+000°)	(-1.45456437439915e+001dB,-7.72273808076035e+001°)
3.16227766016839e+005	(-9.00676808483654e-003dB,1.55702400266093e+000°)	(-1.64836971348575e+001dB,-7.98125615322598e+001°)
3.98107170553499e+005	(-5.72074808507165e-003dB,1.23887744211385e+000°)	(-1.84441699088414e+001dB,-8.18865976802049e+001°)
5.01187233627274e+005	(-3.62483475168263e-003dB,9.85136940953406e-001°)	(-2.04190507462263e+001dB,-8.35445606628814e+001°)
6.30957344480196e+005	(-2.29325651252723e-003dB,7.83058809850887e-001°)	(-2.24031294274123e+001dB,-8.48668521916344e+001°)
7.94328234724285e+005	(-1.44940545865213e-003dB,6.22276210002301e-001°)	(-2.43930547895984e+001dB,-8.59198747580064e+001°)
1.00000000000000e+006	(-9.15495245027211e-004dB,4.94427602803847e-001°)	(-2.63866865354920e+001dB,-8.67576745522983e+001°)
